! Analog Devices, Inc.
! Device:	HMC589AST89E
! Description:	DC to 4 GHz, InGaP HBT Gain Block
! Conditions:	
!		Vs= 5V, Rbias= 1.8 Ohm, TA = +25deg C
!		Icc = ~84 mA quiescent
!		Pin = -25 dBm
!		     
! Product validation unit (SN 5) in package as shown on data sheet's Assembly Diagram,
! Freq(GHz)	S11a(dB)	S11p(deg)	S21a(dB)	S21p(deg)	S12a(dB)	S12p(deg)	S22a(dB)	S22p(deg)
# GHz S DB R 50
0.03	-22.2	177.122	22.289	175.273	-26.025	-3.295	-14.723	-6.536
0.129925	-22.659	168.737	22.252	161.113	-26.07	-12.361	-14.485	-28.781
0.22985	-23.132	160.097	22.198	146.959	-26.095	-21.606	-14.123	-50.184
0.329775	-24.718	155.536	22.123	132.885	-26.115	-30.953	-13.462	-68.078
0.4297	-26.525	150.269	22.04	118.881	-26.152	-40.301	-12.798	-85.273
0.529625	-28.296	153.082	21.936	104.896	-26.167	-49.648	-12.251	-102.397
0.62955	-31.831	178.686	21.845	90.967	-26.222	-59.181	-11.544	-115.863
0.729475	-29.733	-156.753	21.709	76.921	-26.292	-68.274	-10.927	-131.249
0.8294	-24.544	-138.9	21.557	62.521	-26.496	-77.648	-9.954	-143.978
0.929325	-23.111	-167.641	21.141	48.962	-26.501	-83.548	-9.462	-162.879
1.02925	-22.432	-154.019	20.997	36.316	-26.29	-93.326	-9.336	-174.926
1.129175	-20.45	-154.336	20.853	23.284	-26.246	-102.547	-8.976	174.561
1.2291	-18.489	-160.874	20.704	10.01	-26.195	-111.872	-8.892	162.941
1.329025	-17.191	-165.61	20.526	-3.001	-26.163	-120.916	-8.501	152.496
1.42895	-15.391	-178.884	20.357	-16.088	-26.138	-129.976	-8.484	142.105
1.528875	-14.521	174.319	20.164	-29.062	-26.078	-139.001	-8.278	131.202
1.6288	-13.697	160.992	20.013	-41.851	-26.004	-147.987	-8.358	121.038
1.728725	-12.678	153.349	19.837	-54.711	-25.917	-157.21	-8.353	110.685
1.82865	-12.44	139.986	19.665	-67.549	-25.832	-166.453	-8.416	99.077
1.928575	-11.475	130.949	19.47	-80.025	-25.775	-175.492	-8.476	89.71
2.0285	-11.73	121.486	19.376	-92.462	-25.635	175.403	-8.626	77.332
2.128425	-10.662	109.691	19.205	-105.315	-25.513	165.764	-8.823	68.15
2.22835	-10.852	101.296	19.099	-117.601	-25.352	156.517	-9.022	57.061
2.328275	-10.366	86.922	18.96	-130.479	-25.27	146.533	-9.375	46.618
2.4282	-10.3	80.584	18.859	-142.539	-25.121	137.337	-9.556	36.859
2.528125	-10.243	64.863	18.811	-155.368	-24.956	127.225	-10.258	26.168
2.62805	-9.873	58.039	18.706	-167.961	-24.839	117.56	-10.533	17.325
2.727975	-10.353	42.874	18.686	179.133	-24.65	107.156	-11.448	6.259
2.8279	-9.736	33.671	18.571	166.193	-24.536	96.874	-12.047	-2.519
2.927825	-10.416	19.837	18.538	153.288	-24.36	86.463	-12.984	-13.82
3.02775	-9.846	6.528	18.432	140.008	-24.234	75.549	-14.06	-19.892
3.127675	-10.749	-2.602	18.382	127.112	-24.079	65.113	-15.047	-33.693
3.2276	-10.06	-20.946	18.265	113.69	-24	53.739	-16.292	-35.45
3.327525	-10.929	-29.195	18.218	100.734	-23.894	42.863	-17.757	-47.95
3.42745	-10.705	-48.949	18.13	86.897	-23.816	31.324	-18.957	-48.604
3.527375	-10.729	-54.831	18.018	73.861	-23.761	20.575	-19.433	-48.727
3.6273	-11.084	-77.619	17.95	59.795	-23.684	8.475	-20.698	-44.705
3.727225	-10.474	-85.035	17.783	46.371	-23.716	-2.941	-18.843	-44.271
3.82715	-11.494	-104.723	17.73	32.407	-23.618	-14.802	-19.169	-42.203
3.927075	-9.962	-115.056	17.498	18.526	-23.731	-26.556	-16.331	-51.407
4.027	-11.101	-131.458	17.382	4.546	-23.69	-38.553	-15.498	-54.476
4.126925	-9.717	-146.29	17.119	-9.609	-23.831	-50.796	-13.652	-65.934
4.22685	-10.641	-156.015	16.978	-23.338	-23.832	-62.76	-13.101	-78.4
4.326775	-9.079	-176.383	16.685	-37.924	-24.03	-75.544	-11.442	-90.523
4.4267	-9.639	176.996	16.485	-51.601	-24.112	-87.647	-10.866	-105.688
4.526625	-8.792	154.728	16.196	-66.532	-24.313	-100.859	-9.649	-119.041
4.62655	-8.555	152.361	15.899	-79.96	-24.522	-112.778	-8.938	-135.148
4.726475	-8.338	128.658	15.596	-95.286	-24.74	-126.652	-8.027	-149.848
4.8264	-7.58	124.472	15.166	-108.904	-25.118	-138.768	-7.113	-165.645
4.926325	-8.286	105.694	14.897	-123.82	-25.321	-152.353	-6.627	179.918
5.02625	-6.757	97.835	14.292	-137.735	-25.869	-164.9	-5.604	164.462
5.126175	-7.98	82.75	13.998	-152.122	-26.119	-178.032	-5.211	151.039
5.2261	-6.561	69.31	13.338	-166.622	-26.751	168.434	-4.48	135.939
5.326025	-7.714	63.045	12.947	-179.568	-27.156	156.731	-4.078	123.234
5.42595	-6.558	41.815	12.281	165.491	-27.801	142.843	-3.566	109.326
5.525875	-7.427	39.4	11.768	153.024	-28.303	131.27	-3.219	96.492
5.6258	-7.238	15.55	11.207	138.491	-28.888	117.421	-2.936	84.351
5.725725	-7.105	16.442	10.553	126.284	-29.504	106.068	-2.598	70.863
5.82565	-7.887	-9.529	10.02	112.217	-30.092	92.344	-2.405	59.653
5.925575	-7.206	-10.881	9.318	99.932	-30.832	80.474	-2.19	46.986
6.0255	-9.043	-30.387	8.874	86.768	-31.297	67.018	-2.014	35.895
6.125425	-7.157	-38.708	8.07	74.275	-32.208	54.443	-1.865	23.734
6.22535	-9.885	-52.873	7.669	61.604	-32.676	41.241	-1.751	12.483
6.325275	-7.825	-69.358	6.866	48.674	-33.588	27.546	-1.631	1.089
6.4252	-10.149	-70.385	6.437	37.251	-34.081	15.294	-1.518	-9.82
6.525125	-8.32	-101.764	5.701	23.542	-35.008	0.887	-1.491	-21.567
6.62505	-10.127	-94.924	5.155	12.617	-35.563	-11.868	-1.379	-32.2
6.724975	-9.618	-132.674	4.574	-1.015	-36.248	-27.511	-1.341	-43.281
6.8249	-9.119	-120.882	3.873	-11.742	-37.055	-41.698	-1.274	-54.78
6.924825	-10.619	-163.63	3.423	-25.127	-37.614	-57.98	-1.258	-64.804
7.02475	-8.615	-152.459	2.64	-36.3	-38.368	-72.682	-1.229	-76.934
7.124675	-12.21	176.655	2.257	-48.968	-38.793	-89.589	-1.162	-87.269
7.2246	-7.688	174.668	1.396	-60.585	-39.624	-106.229	-1.216	-98.969
7.324525	-12.829	159.516	1.063	-72.722	-39.808	-123.088	-1.149	-109.752
7.42445	-7.7	140.425	0.179	-85.271	-40.33	-141.743	-1.158	-121.3
7.524375	-11.357	152.238	-0.181	-95.792	-40.462	-159.472	-1.137	-132.473
7.6243	-7.59	106.128	-1.033	-109.858	-40.878	-179.162	-1.164	-143.908
7.724225	-9.458	131.844	-1.536	-119.106	-40.972	163.853	-1.113	-154.562
7.82415	-8.919	76.459	-2.163	-133.792	-40.95	142.668	-1.123	-166.419
7.924075	-7.049	105.77	-2.964	-142.594	-41.197	126.445	-1.13	-176.884
8.024	-10.757	50.436	-3.296	-156.922	-40.938	106.607	-1.115	172.076
8.123925	-5.977	73.904	-4.354	-166.918	-41.354	89.421	-1.098	160.341
8.22385	-13.709	51.173	-4.475	-179.432	-40.974	70.475	-1.102	150.1
8.323775	-5.07	38.519	-5.745	168.545	-41.436	52.017	-1.131	137.979
8.4237	-12.584	61.481	-5.792	158.058	-40.838	32.768	-1.083	127.895
8.523625	-5.643	1.7	-7.038	143.629	-41.846	9.544	-1.133	115.214
8.62355	-7.802	51.113	-7.352	135.644	-42.14	-8.143	-1.107	104.774
8.723475	-6.868	-40.61	-8.346	118.978	-43.686	-30.311	-1.148	93.012
8.8234	-5.004	21.892	-9.044	112.295	-44.863	-40.959	-1.101	81.776
8.923325	-11.537	-89.708	-9.608	94.08	-46.004	-61.938	-1.119	70.299
9.02325	-2.924	-18.994	-11.102	87.565	-47.122	-68.829	-1.115	58.685
9.123175	-16.63	142.623	-11.267	68.874	-47.025	-96.627	-1.089	48.128
9.2231	-2.482	-71.431	-13.663	61.991	-49.483	-106.718	-1.094	35.664
9.323025	-5.757	38.003	-13.833	45.065	-49.976	-136.502	-1.072	25.536
9.42295	-2.805	-147.052	-17.533	40.777	-53.638	-150.734	-1.109	13.262
9.522875	-1.171	-27.776	-17.58	36.291	-54.069	-165.555	-1.024	3.383
9.6228	-3.116	106.514	-20.537	41.204	-57.604	-165.694	-1.072	-8.317
9.722725	-1.783	-96.521	-17.877	42.678	-53.345	174.634	-1.033	-18.975
9.82265	-1.765	17.249	-19.293	33.932	-57.895	152.105	-1.03	-28.768
9.922575	-9.039	-172.659	-17.007	25.645	-55.462	130.282	-1.022	-40.72
10.0225	-1.152	-48.301	-18.817	9.451	-61.102	115.297	-0.965	-49.255
10.122425	-12.08	49.542	-17.805	3.247	-63.061	137.354	-1.041	-61.396
10.22235	-2.252	-96.235	-19.127	-15.871	-62.729	134.646	-0.912	-69.269
10.322275	-5.463	-23.247	-19.34	-19.473	-60.779	144.499	-1.001	-80.456
10.4222	-4.385	-134.012	-20.046	-39.031	-53.418	138.363	-0.909	-89.951
10.522125	-3.311	-66.129	-21.059	-41.102	-50.788	130.251	-0.947	-98.201
10.62205	-9.835	-150.431	-21.192	-57.41	-47.428	93.002	-0.903	-108.918
10.721975	-2.278	-107.533	-22.779	-61.712	-46.62	74.196	-0.895	-115.969
10.8219	-13.693	-115.091	-22.505	-73.105	-44.63	58.962	-0.936	-127.195
10.921825	-2.879	-141.948	-24.276	-81.949	-45.4	43.605	-0.829	-133.312
11.02175	-7.054	-105.077	-24.074	-88.026	-43.218	33.012	-0.935	-144.074
11.121675	-4.037	-173.996	-25.414	-100.835	-42.752	14.905	-0.818	-151.17
11.2216	-4.241	-125.444	-25.593	-102.125	-41.96	5.935	-0.951	-159.363
11.321525	-6.94	170.664	-26.429	-116.06	-40.884	-12.306	-0.826	-168.195
11.42145	-2.743	-157.414	-26.94	-117.85	-40.399	-27.905	-0.916	-174.926
11.521375	-9.696	175.85	-26.794	-130.264	-39.825	-46.835	-0.951	175.016
11.6213	-2.908	174.422	-27.951	-136.137	-41.089	-61.029	-0.836	170.839
11.721225	-7.133	-169.941	-27.675	-145.203	-40.929	-71.712	-0.957	159.565
11.82115	-3.746	143.912	-28.922	-155.984	-41.284	-87.893	-0.842	153.999
11.921075	-4.705	-178.998	-28.631	-160.358	-41.948	-95.947	-0.957	145.699
12.021	-5.754	127.073	-29.902	-176.226	-43.885	-107.057	-0.83	137.453
12.120925	-3.207	153.651	-30.491	179.663	-44.498	-107.73	-0.915	131.13
12.22085	-8.332	122.195	-31.102	166.715	-45.528	-104.609	-0.937	120.697
12.320775	-3.157	129.297	-32.446	162.875	-46.696	-101.095	-0.858	116.275
12.4207	-7.356	131.661	-32.671	154.611	-43.901	-105.569	-1.026	104.795
12.520625	-3.96	99.191	-33.973	149.144	-43.084	-113.031	-0.926	99.301
12.62055	-5.54	127.971	-33.797	144.577	-42.702	-117.213	-1.12	89.947
12.720475	-5.499	80.814	-34.669	127.855	-44.63	-131.613	-1.027	81.662
12.8204	-4.223	103.43	-35.591	122.295	-45.293	-119.139	-1.153	74.176
12.920325	-8.153	68.915	-36.876	107.451	-44.578	-117.585	-1.221	63.002
13.02025	-4.01	80.683	-39.454	100.751	-43.222	-107.68	-1.179	56.903
13.120175	-8.458	70.037	-41.022	84.365	-41.41	-109.698	-1.432	43.77
13.2201	-4.924	49.245	-47.023	50.996	-39.477	-105.75	-1.264	36.308
13.320025	-7.7	69.876	-51.116	-21.867	-36.311	-111.685	-1.644	23.734
13.41995	-6.361	25.918	-44.074	-103.647	-34.359	-123.684	-1.514	12.788
13.519875	-6.698	45.787	-37.995	-128.333	-31.824	-134.52	-1.814	1.51
13.6198	-9.433	4.446	-35.165	-149.327	-30.818	-150.823	-1.843	-13.569
13.719725	-6.195	22.245	-32.468	-162.758	-29.502	-161.199	-1.947	-23.026
13.81965	-10.853	-9.183	-30.297	178.506	-27.984	-178.96	-2.148	-42.265
13.919575	-7.214	-15.195	-29.161	162.844	-27.284	166.849	-2.086	-52.143
14.0195	-12.349	-13.446	-27.599	145.099	-26.269	149.45	-2.433	-71.514
14.119425	-7.85	-47.919	-27.235	130.244	-26.251	134.765	-2.025	-83.419
14.21935	-11.215	-44.362	-26.729	116.899	-25.762	121.789	-2.451	-101.972
14.319275	-9.701	-87.734	-26.655	104.215	-26.004	108.767	-1.892	-116.518
14.4192	-9.825	-69.243	-25.992	94.191	-25.436	97.727	-2.252	-130.689
14.519125	-9.602	-119.65	-25.899	80.975	-25.564	84.233	-1.783	-147.999
14.61905	-8.662	-112.931	-25.389	70.262	-25.222	73.487	-1.864	-157.786
14.718975	-10.724	-145.098	-25.212	56.965	-25.178	59.504	-1.711	-175.958
14.8189	-7.222	-142.416	-25.038	48.25	-25.177	50.84	-1.478	178.363
14.918825	-8.997	-165.941	-24.973	34.402	-25.103	36.568	-1.627	161.033
15.01875	-6.829	-175.711	-25.217	25.176	-25.457	26.864	-1.185	155.376
15.118675	-7.738	-176.247	-25.256	15.21	-25.448	17.248	-1.495	142.669
15.2186	-5.521	162.037	-25.641	10.458	-25.896	11.675	-1.006	134.51
15.318525	-5.96	157.86	-24.474	3.772	-24.848	5.333	-1.258	127.207
15.41845	-6.024	141.689	-24.186	-7.92	-24.664	-6.913	-0.979	115.73
15.518375	-4.895	144.187	-23.473	-16.145	-23.963	-14.875	-1.021	112.958
15.6183	-5.383	125.306	-23.226	-31.189	-23.848	-30.653	-1.091	100.542
15.718225	-4.934	124.044	-22.97	-40.132	-23.631	-39.101	-0.775	98.134
15.81815	-5.214	121.845	-22.582	-53.193	-23.215	-52.159	-1.185	88.434
15.918075	-4.088	111.155	-22.888	-65.79	-23.477	-64.694	-0.812	83.331
16.018	-4.594	106.786	-22.708	-77.401	-23.33	-76.319	-1.058	78.626
16.117925	-4.247	102.148	-23.096	-88.08	-23.809	-87.436	-0.877	69.574
16.21785	-3.437	99.882	-23.072	-96.301	-23.804	-95.967	-0.886	68.317
16.317775	-3.453	86.594	-23.307	-109.952	-23.916	-109.187	-1.026	58.672
16.4177	-3.474	86.877	-23.369	-117.413	-24.071	-116.369	-0.737	56.674
16.517625	-3.057	82.535	-23.511	-127.143	-24.141	-126.57	-1.066	50.092
16.61755	-2.643	74.251	-23.667	-136.526	-24.364	-135.767	-0.768	44.565
16.717475	-3.051	67.561	-23.437	-146.93	-24.183	-146.099	-0.978	42.113
16.8174	-2.663	67.345	-23.634	-156.756	-24.408	-156.069	-0.86	33.917
16.917325	-2.264	60.985	-23.873	-166.406	-24.509	-165.547	-0.83	32.175
17.01725	-2.31	50.985	-24.18	-177.518	-24.895	-176.792	-1.056	24.715
17.117175	-2.559	52.038	-24.294	175.918	-24.949	176.149	-0.666	21.749
17.2171	-1.901	44.866	-24.287	165.28	-25.017	166.176	-1.05	16.289
17.317026	-1.973	39.169	-24.6	155.726	-25.243	156.264	-0.75	10.845
17.41695	-2.43	31.832	-24.597	146.031	-25.286	145.982	-0.871	8.576
17.516876	-1.842	32.843	-25.138	136.779	-25.929	136.89	-0.849	0.016
17.6168	-1.936	23.281	-25.322	127.574	-26.031	127.799	-0.78	-1.43
17.716726	-1.92	16.454	-25.743	117.814	-26.5	118.423	-0.96	-9.042
17.81665	-2.28	17.924	-26.151	112.199	-26.849	112.681	-0.665	-12.76
17.916576	-1.584	7.312	-26.618	104.362	-27.332	103.979	-1.011	-18.185
18.0165	-2.064	4.655	-26.885	99.763	-27.671	99.564	-0.729	-23.935
18.116426	-2.396	-3.584	-26.735	92.272	-27.532	92.989	-0.864	-26.982
18.21635	-1.704	-2.619	-27.022	87.486	-27.749	88.065	-0.879	-35.734
18.316276	-2.247	-14.893	-26.891	81.876	-27.467	82.363	-0.821	-38.016
18.4162	-2.159	-18.47	-26.808	75.559	-27.446	75.868	-0.934	-46.401
18.516126	-2.622	-18.774	-26.4	71.613	-27.164	71.629	-0.791	-50.771
18.61605	-1.886	-31.814	-25.966	65.032	-26.701	64.853	-1.083	-56.997
18.715976	-2.822	-32.34	-25.39	59.461	-26.089	58.726	-0.904	-63.955
18.8159	-3.047	-42.902	-24.677	49.8	-25.406	49.533	-1.108	-69.421
18.915826	-2.274	-42.039	-24.376	42.307	-25.152	42.511	-1.11	-78.434
19.01575	-3.383	-57.67	-23.746	33.29	-24.462	33.259	-1.194	-82.923
19.115676	-3.128	-59	-23.19	25.444	-23.949	25.228	-1.365	-93.132
19.2156	-3.984	-61.731	-22.395	16.856	-23.012	16.56	-1.368	-99.7
19.315526	-3.114	-77.732	-21.857	6.073	-22.47	5.179	-1.749	-109.369
19.41545	-4.963	-77.636	-20.919	-3.887	-21.572	-4.553	-1.79	-118.793
19.515376	-5.089	-93.114	-20.234	-15.817	-20.871	-16.604	-2.135	-128.399
19.6153	-4.741	-91.301	-19.442	-27.216	-20.154	-28.189	-2.511	-141.907
19.715226	-6.896	-116.793	-18.591	-41.079	-19.299	-42.232	-2.929	-152.56
19.81515	-6.863	-112.326	-17.927	-55.485	-18.548	-56.334	-3.58	-168.368
19.915076	-9.92	-123.19	-17.432	-71.619	-18.005	-72.48	-3.991	175.732
20.015	-8.111	-142.978	-16.93	-87.151	-17.554	-88.475	-5.132	157.214
20.114926	-15.946	-149.446	-16.611	-105.371	-17.168	-106.371	-5.604	135.189
20.21485	-14.41	-177.226	-16.699	-123.933	-17.232	-124.971	-6.609	114.063
20.314776	-19.299	-155.224	-17.056	-141.656	-17.621	-142.959	-6.607	84.564
20.4147	-15.714	95.668	-17.662	-157.722	-18.15	-159.375	-6.895	62.856
20.514626	-23.449	19.613	-18.533	-172.818	-19.025	-174.795	-6.329	34.525
20.61455	-13.535	14.741	-19.26	174.392	-19.707	172.372	-5.947	19.537
20.714476	-16.309	15.97	-19.856	161.496	-20.3	159.492	-5.359	-4.719
20.814399	-9.017	-14.365	-20.639	149.217	-21.085	146.97	-4.596	-16.325
20.914326	-10.436	-16.881	-21.246	137.632	-21.662	135.05	-4.646	-33.165
21.014249	-8.706	-42.281	-21.979	126.956	-22.419	123.849	-3.534	-40.826
21.114175	-7.306	-28.314	-22.514	114.836	-22.957	111.971	-3.842	-54.199
21.214099	-7.034	-58.118	-23.89	105.431	-24.33	102.043	-2.952	-64.413
21.314025	-6.069	-58.181	-24.345	100.531	-24.713	97.023	-3.082	-70.033
21.413949	-7.797	-65.732	-24.432	92.27	-24.952	88.374	-2.527	-83.356
21.513875	-4.98	-73.085	-25.064	84.674	-25.614	80.7	-2.46	-86.632
21.613799	-6.48	-81.023	-25.232	77.275	-25.821	73.354	-2.532	-99.195
21.713725	-6.04	-92.884	-25.023	72.141	-25.73	68.206	-2.05	-102.431
21.813649	-5.811	-83.959	-24.822	64.442	-25.423	60.647	-2.382	-111.739
21.913575	-5.63	-106.056	-24.462	53.498	-25.198	50.051	-1.926	-119.735
22.013499	-5.733	-103.144	-24.288	43.172	-24.846	40.196	-2.246	-122.34
22.113425	-6.658	-108.262	-24.603	33.433	-25.17	29.799	-1.849	-133.856
22.213349	-4.701	-115.366	-24.791	27.313	-25.383	23.752	-1.98	-136.839
22.313275	-6.236	-122.837	-24.288	19.45	-24.933	16.374	-2.079	-146.025
22.413199	-5.963	-129.21	-23.668	13.181	-24.276	9.894	-1.777	-151.028
22.513125	-5.577	-125.585	-22.717	3.85	-23.454	0.289	-2.138	-159.095
22.613049	-5.66	-144.591	-21.902	-7.53	-22.711	-11.325	-1.922	-166.992
22.712975	-6.107	-141.864	-20.724	-19.519	-21.546	-22.656	-2.208	-171.851
22.812899	-6.58	-147.159	-19.827	-35.854	-20.678	-38.287	-2.263	176.826
22.912825	-5.265	-156.394	-19.359	-50.372	-20.146	-52.563	-2.402	170.465
23.012749	-7.225	-165.548	-18.483	-66.802	-19.341	-68.735	-2.985	159.713
23.112675	-7.027	-168.558	-17.871	-82.804	-18.637	-85.082	-2.959	150.3
23.212599	-7.369	-169.942	-17.103	-102.02	-17.883	-104.011	-4.167	139.441
23.312525	-8.595	171.831	-16.658	-122.868	-17.413	-124.784	-4.739	124.413
23.412449	-9.89	-173.146	-16.295	-144.252	-17.061	-145.722	-6.715	113.99
23.512375	-10.107	-174.658	-16.344	-168.34	-17.078	-169.767	-8.944	90.072
23.612299	-8.494	179.476	-16.507	168.241	-17.255	167.219	-13.416	80.623
23.712225	-10.166	-178.952	-17.027	142.701	-17.77	141.864	-20.985	17.738
23.812149	-8.082	172.27	-17.826	119.106	-18.603	118.549	-24.658	-85.264
23.912075	-7.924	164.3	-18.626	94.53	-19.386	95.167	-13.779	-121.761
24.011999	-9.413	141.316	-19.578	70.525	-20.405	71.641	-12.777	-136.16
24.111925	-10.306	145.51	-20.668	46.505	-21.45	47.998	-8.895	-149.669
24.211849	-11.546	125.399	-21.324	22.544	-22.107	24.346	-8.558	-155.86
24.311775	-12.838	105.909	-22.209	-3.185	-23.001	-0.489	-7.084	-171.07
24.411699	-24.395	67.778	-22.875	-29.258	-23.724	-26.69	-6.55	-170.5
24.511625	-30.709	93.434	-23.689	-57.086	-24.676	-53.552	-6.121	173.91
24.611549	-22.378	-92.57	-24.842	-82.636	-26.064	-78.44	-5.06	175.368
24.711475	-14.184	-89.61	-25.643	-102.117	-26.823	-98.401	-5.788	164.048
24.811399	-10.437	-128.446	-26.465	-121.92	-27.483	-118.868	-4.093	160.659
24.911325	-9.546	-135.387	-26.896	-142.428	-28.134	-138.236	-4.991	154.982
25.011249	-8.333	-144.372	-27.559	-157.642	-28.775	-153.818	-4.028	144.084
25.111175	-6	-153.436	-27.97	-168.179	-29.047	-166.08	-4.3	147.77
25.211099	-6.093	-171.292	-27.909	175.451	-29.051	178.25	-4.257	131.329
25.311025	-5.745	-175.814	-27.545	163.345	-28.585	165.945	-3.935	136.822
25.410949	-4.828	-178.227	-26.975	148.117	-28.277	149.188	-4.768	127.141
25.510875	-4.2	165.96	-27.589	131.676	-28.85	132.811	-3.263	124.024
25.610799	-4.655	159.024	-27.507	117.757	-28.777	118.421	-4.575	122.614
25.710725	-4.19	157.414	-28.373	105.249	-29.654	106.116	-3.437	111.883
25.810649	-3.463	147.722	-28.38	96.949	-29.631	97.372	-3.59	117.147
25.910575	-3.776	136.55	-28.778	85.224	-30.109	86.037	-3.883	101.169
26.010499	-4.193	134.658	-28.703	77.656	-29.844	77.697	-3.086	105.934
26.110425	-2.953	130.021	-28.235	67.634	-29.394	68.041	-4.239	96.603
26.210349	-3.45	118.498	-28.022	56.463	-29.27	56.776	-2.98	91.658
26.310275	-3.924	110.629	-27.291	45.792	-28.668	44.921	-4.006	92.989
26.410199	-3.394	113.831	-27.114	32.67	-28.322	32.879	-3.4	79.649
26.510125	-3.278	98.754	-26.76	20.686	-28.103	21.78	-3.278	85.125
26.610049	-3.522	90.986	-26.281	5.465	-27.493	5.703	-4.331	69.224
26.709975	-5	89.796	-25.594	-6.162	-26.852	-6.849	-3.232	71.444
26.809899	-3.07	81.347	-24.618	-23.015	-25.827	-23.24	-5.108	63.271
26.909825	-5.576	68.076	-23.332	-44.935	-24.677	-45.45	-4.341	52.986
27.009749	-7.225	55.586	-21.752	-73.79	-22.979	-73.935	-6.447	60.166
27.109675	-8.944	72.91	-20.446	-113.03	-21.679	-113.538	-8.767	38.926
27.209601	-16.521	60.057	-19.917	-169.581	-21.159	-169.578	-9.618	81.531
27.309525	-8.435	127.092	-21.494	112.367	-22.785	111.942	-7.997	112.091
27.409451	-3.587	119.221	-25.822	24.334	-27.13	23.303	-2.643	89.72
27.509375	-1.962	89.023	-29.928	-46.645	-31.331	-48.278	-1.285	84.519
27.609301	-2.044	86.671	-33.497	-97.703	-35.281	-97.411	-1.217	62.292
27.709225	-2.137	71.734	-37.325	-127.708	-38.703	-130.967	-0.385	62.113
27.809151	-0.544	65.411	-43.219	-149.628	-43.674	-152.863	-1.508	47.915
27.909075	-2.258	51.035	-48.396	-137.034	-49.03	-149.512	-0.33	45.466
28.009001	-1.298	48.371	-48.553	-99.751	-50.131	-94.231	-1.464	40.916
